time	V(p2)	V(c5_ic)	V(reset)	V(vosc)	V(p1)	V(vout)	V(sam)
Step Information: Cin=1µ  (Run: 1/3)
0.000000000000000e+00	0.000000e+00	0.000000e+00	0.000000e+00	5.000000e+00	0.000000e+00	0.000000e+00	0.000000e+00
9.999999960041972e-12	0.000000e+00	-7.849207e-28	5.000000e-02	5.000000e+00	0.000000e+00	-4.932571e-43	0.000000e+00
1.999999992008394e-11	0.000000e+00	-5.232147e-27	1.000000e-01	5.000000e+00	0.000000e+00	-4.599062e-42	0.000000e+00
1.000000000000000e-09	0.000000e+00	-5.209522e-22	5.000000e+00	5.000016e+00	0.000000e+00	-2.204152e-34	0.000000e+00
1.939600013067874e-08	0.000000e+00	-4.490808e-18	5.000000e+00	5.000305e+00	0.000000e+00	-1.584214e-27	0.000000e+00
3.782800026161321e-08	0.000000e+00	-2.464652e-17	5.000000e+00	5.000594e+00	0.000000e+00	-2.550440e-26	0.000000e+00
7.469200052348216e-08	0.000000e+00	-1.216764e-16	5.000000e+00	5.001173e+00	0.000000e+00	-3.298887e-25	0.000000e+00
1.484200010472200e-07	0.000000e+00	-5.393038e-16	5.000000e+00	5.002331e+00	0.000000e+00	-3.472832e-24	0.000000e+00
2.958760020946958e-07	0.000000e+00	-1.846646e-15	5.000000e+00	5.004648e+00	0.000000e+00	-1.747663e-23	0.000000e+00
3.327400023565648e-07	0.000000e+00	-2.298482e-15	5.000000e+00	5.005227e+00	0.000000e+00	-2.414210e-23	0.000000e+00
4.064680028803027e-07	0.000000e+00	-3.467501e-15	5.000000e+00	5.006385e+00	0.000000e+00	-4.723834e-23	0.000000e+00
5.539240039277784e-07	0.000000e+00	-6.404227e-15	5.000000e+00	5.008701e+00	0.000000e+00	-1.324163e-22	0.000000e+00
8.488360060227299e-07	0.000000e+00	-1.421306e-14	5.000000e+00	5.013333e+00	0.000000e+00	-5.148111e-22	0.000000e+00
1.438660010212633e-06	0.000000e+00	-3.486070e-14	5.000000e+00	5.022598e+00	0.000000e+00	-2.406124e-21	0.000000e+00
2.618308018592439e-06	0.000000e+00	-8.422865e-14	5.000000e+00	5.041126e+00	0.000000e+00	-9.064274e-21	0.000000e+00
3.046875000000000e-06	0.000000e+00	-1.040914e-13	5.000000e+00	5.047857e+00	0.000000e+00	-1.293644e-20	0.000000e+00
3.935008962815085e-06	0.000000e+00	-1.474645e-13	5.000000e+00	5.061805e+00	0.000000e+00	-2.358384e-20	0.000000e+00
4.488000000000612e-06	0.000000e+00	-1.750685e-13	5.000000e+00	5.070488e+00	0.000000e+00	-3.246955e-20	0.000000e+00
5.000999999999999e-06	0.000000e+00	-2.008415e-13	5.000000e+00	5.078543e+00	0.000000e+00	-4.205670e-20	0.000000e+00
5.001999999999999e-06	0.000000e+00	-2.008923e-13	0.000000e+00	5.078558e+00	0.000000e+00	-4.207671e-20	0.000000e+00
1.000000000000000e-05	0.000000e+00	-2.091120e-12	0.000000e+00	5.156976e+00	0.000000e+00	-5.592256e-19	0.000000e+00
1.000018950062313e-05	0.000000e+00	-2.091217e-12	0.000000e+00	5.156979e+00	9.475031e-01	-5.592651e-19	0.000000e+00
1.000023222148739e-05	0.000000e+00	-2.091238e-12	0.000000e+00	5.156980e+00	1.161107e+00	-5.592740e-19	0.000000e+00
1.000025942487860e-05	0.000000e+00	-2.091252e-12	0.000000e+00	5.156981e+00	1.297124e+00	-5.592797e-19	0.000000e+00
1.000028396369005e-05	0.000000e+00	-2.091265e-12	0.000000e+00	5.156981e+00	1.419818e+00	-5.592848e-19	0.000000e+00
1.000100000000000e-05	0.000000e+00	-2.093960e-12	0.000000e+00	5.156992e+00	5.000000e+00	-5.594339e-19	0.000000e+00
1.000868946248345e-05	0.000000e+00	-5.603172e-12	0.000000e+00	5.157113e+00	5.000000e+00	-5.611728e-19	0.000000e+00
1.002302781462768e-05	0.000000e+00	-5.408513e-11	0.000000e+00	5.157337e+00	5.000000e+00	-5.751871e-19	0.000000e+00
1.004696424227388e-05	0.000000e+00	-3.443364e-10	0.000000e+00	5.157712e+00	5.000000e+00	-8.521085e-19	0.000000e+00
1.007189216673148e-05	0.000000e+00	-9.970180e-10	0.000000e+00	5.158103e+00	5.000000e+00	-2.403970e-18	0.000000e+00
1.012174801564668e-05	0.000000e+00	-3.395367e-09	0.000000e+00	5.158885e+00	5.000000e+00	-1.504347e-17	0.000000e+00
1.022145971347708e-05	0.000000e+00	-1.206550e-08	0.000000e+00	5.160448e+00	5.000000e+00	-1.114842e-16	0.000000e+00
1.040860495920786e-05	0.000000e+00	-3.880466e-08	0.000000e+00	5.163382e+00	5.000000e+00	-6.424545e-16	0.000000e+00
1.065721000507023e-05	0.000000e+00	-9.222795e-08	0.000000e+00	5.167278e+00	5.000000e+00	-2.459446e-15	0.000000e+00
1.103473525217913e-05	0.000000e+00	-2.034831e-07	0.000000e+00	5.173194e+00	5.000000e+00	-8.560467e-15	0.000000e+00
1.153383529728946e-05	0.000000e+00	-3.887041e-07	0.000000e+00	5.181014e+00	5.000000e+00	-2.470977e-14	0.000000e+00
1.226014264153985e-05	0.000000e+00	-7.041334e-07	0.000000e+00	5.192390e+00	5.000000e+00	-6.641201e-14	0.000000e+00
1.308590724835504e-05	0.000000e+00	-1.098698e-06	0.000000e+00	5.205319e+00	5.000000e+00	-1.438666e-13	0.000000e+00
1.417576106983229e-05	0.000000e+00	-1.647954e-06	0.000000e+00	5.222375e+00	5.000000e+00	-2.997409e-13	0.000000e+00
1.551701961180194e-05	0.000000e+00	-2.341261e-06	0.000000e+00	5.243349e+00	5.000000e+00	-5.811820e-13	0.000000e+00
1.747014461180194e-05	0.000000e+00	-3.363511e-06	0.000000e+00	5.273859e+00	5.000000e+00	-1.152236e-12	0.000000e+00
1.942326961180194e-05	0.000000e+00	-4.393123e-06	0.000000e+00	5.304332e+00	5.000000e+00	-1.908081e-12	0.000000e+00
4.481389461180196e-05	0.000000e+00	-1.831961e-05	0.000000e+00	5.694644e+00	5.000000e+00	-3.051161e-11	0.000000e+00
5.500000000000000e-05	0.000000e+00	-2.418107e-05	0.000000e+00	5.846845e+00	5.000000e+00	-5.208038e-11	0.000000e+00
5.533364926708118e-05	0.000000e+00	-2.437577e-05	0.000000e+00	5.851773e+00	5.000000e+00	-5.289192e-11	0.000000e+00
5.577851495652276e-05	0.000000e+00	-2.463569e-05	0.000000e+00	5.858337e+00	5.000000e+00	-5.398602e-11	0.000000e+00
5.666824633540591e-05	0.000000e+00	-2.515653e-05	0.000000e+00	5.871441e+00	5.000000e+00	-5.621469e-11	0.000000e+00
5.822753724223372e-05	0.000000e+00	-2.607100e-05	0.000000e+00	5.894368e+00	5.000000e+00	-6.018688e-11	0.000000e+00
5.834753724223398e-05	0.000000e+00	-2.614157e-05	0.000000e+00	5.896128e+00	5.000000e+00	-6.050016e-11	0.000000e+00
5.847553724223426e-05	0.000000e+00	-2.621687e-05	0.000000e+00	5.898005e+00	5.000000e+00	-6.083550e-11	0.000000e+00
5.873153724223482e-05	0.000000e+00	-2.636756e-05	0.000000e+00	5.901755e+00	5.000000e+00	-6.150978e-11	0.000000e+00
5.924653724223595e-05	0.000000e+00	-2.667087e-05	0.000000e+00	5.909297e+00	5.000000e+00	-6.287311e-11	0.000000e+00
5.930653724223608e-05	0.000000e+00	-2.670624e-05	0.000000e+00	5.910175e+00	5.000000e+00	-6.303321e-11	0.000000e+00
5.937053724223622e-05	0.000000e+00	-2.674398e-05	0.000000e+00	5.911111e+00	5.000000e+00	-6.320428e-11	0.000000e+00
5.949853724223650e-05	0.000000e+00	-2.681947e-05	0.000000e+00	5.912982e+00	5.000000e+00	-6.354733e-11	0.000000e+00
5.975453724223706e-05	0.000000e+00	-2.697050e-05	0.000000e+00	5.916725e+00	5.000000e+00	-6.423512e-11	0.000000e+00
5.975753724223707e-05	0.000000e+00	-2.697227e-05	0.000000e+00	5.916769e+00	5.000000e+00	-6.424321e-11	0.000000e+00
5.976153724223708e-05	0.000000e+00	-2.697463e-05	0.000000e+00	5.916828e+00	5.000000e+00	-6.425399e-11	0.000000e+00
5.976953724223710e-05	0.000000e+00	-2.697935e-05	0.000000e+00	5.916945e+00	5.000000e+00	-6.427556e-11	0.000000e+00
5.978553724223713e-05	0.000000e+00	-2.698880e-05	0.000000e+00	5.917178e+00	5.000000e+00	-6.431873e-11	0.000000e+00
5.981753724223720e-05	0.000000e+00	-2.700768e-05	0.000000e+00	5.917646e+00	5.000000e+00	-6.440512e-11	0.000000e+00
5.988253724223734e-05	0.000000e+00	-2.704605e-05	0.000000e+00	5.918596e+00	5.000000e+00	-6.458070e-11	0.000000e+00
5.989653724223738e-05	0.000000e+00	-2.705432e-05	0.000000e+00	5.918800e+00	5.000000e+00	-6.461856e-11	0.000000e+00
5.991253724223741e-05	0.000000e+00	-2.706376e-05	0.000000e+00	5.919034e+00	5.000000e+00	-6.466185e-11	0.000000e+00
5.994753724223749e-05	0.000000e+00	-2.708443e-05	0.000000e+00	5.919545e+00	5.000000e+00	-6.475656e-11	0.000000e+00
5.995953724223751e-05	0.000000e+00	-2.709152e-05	0.000000e+00	5.919720e+00	5.000000e+00	-6.478906e-11	0.000000e+00
5.997853724223755e-05	0.000000e+00	-2.710273e-05	0.000000e+00	5.919998e+00	5.000000e+00	-6.484052e-11	0.000000e+00
6.000000000000000e-05	0.000000e+00	-2.711541e-05	0.000000e+00	5.920311e+00	5.000000e+00	-6.489869e-11	0.000000e+00
6.000010000000000e-05	5.000000e-01	-2.711547e-05	0.000000e+00	5.920313e+00	5.000000e+00	-6.489896e-11	0.000000e+00
6.000021857257032e-05	1.092863e+00	-2.715936e-05	0.000000e+00	5.920315e+00	5.000000e+00	-6.489928e-11	0.000000e+00
6.000026635504168e-05	1.331775e+00	-2.736888e-05	0.000000e+00	5.920315e+00	5.000000e+00	-6.489941e-11	0.000000e+00
6.000031247289515e-05	1.562364e+00	-2.803777e-05	0.000000e+00	5.920316e+00	5.000000e+00	-6.489954e-11	0.000000e+00
6.000080383098403e-05	4.019155e+00	-8.303251e-05	0.000000e+00	5.920323e+00	5.000000e+00	-6.490088e-11	0.000000e+00
6.000100000000000e-05	5.000000e+00	-1.292068e-04	0.000000e+00	5.920326e+00	5.000000e+00	-6.490143e-11	0.000000e+00
6.000132274692066e-05	5.000000e+00	-2.396652e-04	0.000000e+00	5.920331e+00	3.386265e+00	-6.490242e-11	0.000000e+00
6.000165590503230e-05	5.000000e+00	-3.914236e-04	0.000000e+00	5.920336e+00	1.720475e+00	-6.490362e-11	0.000000e+00
6.000200000000001e-05	5.000000e+00	-5.728304e-04	0.000000e+00	5.920341e+00	0.000000e+00	-6.490500e-11	0.000000e+00
6.000224086647740e-05	5.000000e+00	-7.333170e-04	0.000000e+00	5.920344e+00	0.000000e+00	-6.490629e-11	0.000000e+00
6.000251614245156e-05	5.000000e+00	-9.450706e-04	0.000000e+00	5.920348e+00	0.000000e+00	-6.490820e-11	0.000000e+00
6.000306669439988e-05	5.000000e+00	-1.456875e-03	0.000000e+00	5.920356e+00	0.000000e+00	-6.491434e-11	0.000000e+00
6.000416779829653e-05	5.000000e+00	-2.811488e-03	0.000000e+00	5.920372e+00	0.000000e+00	-6.494384e-11	0.000000e+00
6.000637000608982e-05	5.000000e+00	-6.688180e-03	0.000000e+00	5.920404e+00	0.000000e+00	-6.515616e-11	0.000000e+00
6.001077442167641e-05	5.000000e+00	-1.762406e-02	0.000000e+00	5.920469e+00	0.000000e+00	-6.651901e-11	0.000000e+00
6.001639860720709e-05	5.000000e+00	-3.636345e-02	0.000000e+00	5.920551e+00	0.000000e+00	-7.177860e-11	0.000000e+00
6.002485905782213e-05	5.000000e+00	-7.153895e-02	0.000000e+00	5.920674e+00	0.000000e+00	-9.174173e-11	0.000000e+00
6.003536389645915e-05	5.000000e+00	-1.218265e-01	0.000000e+00	5.920828e+00	0.000000e+00	-1.446806e-10	0.000000e+00
6.004779986922791e-05	5.000000e+00	-1.864627e-01	0.000000e+00	5.921010e+00	0.000000e+00	-2.651030e-10	0.000000e+00
6.006482357002737e-05	5.000000e+00	-2.781100e-01	0.000000e+00	5.921258e+00	0.000000e+00	-5.598672e-10	0.000000e+00
6.009055845257641e-05	5.000000e+00	-4.164820e-01	0.000000e+00	5.921634e+00	0.000000e+00	-1.343525e-09	0.000000e+00
6.013760010235713e-05	5.000000e+00	-6.604775e-01	0.000000e+00	5.922321e+00	0.000000e+00	-3.898951e-09	0.000000e+00
6.023168340191859e-05	5.000000e+00	-1.109951e+00	0.000000e+00	5.923694e+00	0.000000e+00	-1.305752e-08	0.000000e+00
6.041985000104149e-05	5.000000e+00	-1.895228e+00	0.000000e+00	5.926440e+00	0.000000e+00	-4.311472e-08	0.000000e+00
6.066658713030602e-05	5.000000e+00	-2.730436e+00	0.000000e+00	5.930038e+00	0.000000e+00	-1.026064e-07	0.000000e+00
6.104538374378485e-05	5.000000e+00	-3.678595e+00	0.000000e+00	5.935557e+00	0.000000e+00	-2.284271e-07	0.000000e+00
6.154131238126106e-05	5.000000e+00	-4.525001e+00	0.000000e+00	5.942776e+00	0.000000e+00	-4.339257e-07	0.000000e+00
6.206358263023566e-05	5.000000e+00	-5.089374e+00	0.000000e+00	5.950369e+00	0.000000e+00	-6.840959e-07	0.000000e+00
6.254441515662524e-05	5.000000e+00	-5.405348e+00	0.000000e+00	5.957351e+00	0.000000e+00	-9.354378e-07	0.000000e+00
6.301700588726777e-05	5.000000e+00	-5.594566e+00	0.000000e+00	5.964204e+00	0.000000e+00	-1.194998e-06	0.000000e+00
6.348718497867997e-05	5.000000e+00	-5.711322e+00	0.000000e+00	5.971014e+00	0.000000e+00	-1.460614e-06	0.000000e+00
6.396824504640702e-05	5.000000e+00	-5.785536e+00	0.000000e+00	5.977973e+00	0.000000e+00	-1.737048e-06	0.000000e+00
6.444589901027129e-05	5.000000e+00	-5.831259e+00	0.000000e+00	5.984873e+00	0.000000e+00	-2.014412e-06	0.000000e+00
6.492599905263281e-05	5.000000e+00	-5.859674e+00	0.000000e+00	5.991800e+00	0.000000e+00	-2.295007e-06	0.000000e+00
6.540234555999167e-05	5.000000e+00	-5.877129e+00	0.000000e+00	5.998664e+00	0.000000e+00	-2.574517e-06	0.000000e+00
6.588150480454050e-05	5.000000e+00	-5.887993e+00	0.000000e+00	6.005560e+00	0.000000e+00	-2.856368e-06	0.000000e+00
6.635884061297986e-05	5.000000e+00	-5.894696e+00	0.000000e+00	6.012420e+00	0.000000e+00	-3.137572e-06	0.000000e+00
6.683836044346648e-05	5.000000e+00	-5.898863e+00	0.000000e+00	6.019302e+00	0.000000e+00	-3.420327e-06	0.000000e+00
6.731660403751741e-05	5.000000e+00	-5.901434e+00	0.000000e+00	6.026157e+00	0.000000e+00	-3.702494e-06	0.000000e+00
6.779686653863912e-05	5.000000e+00	-5.903031e+00	0.000000e+00	6.033032e+00	0.000000e+00	-3.985953e-06	0.000000e+00
6.827689243313189e-05	5.000000e+00	-5.904017e+00	0.000000e+00	6.039894e+00	0.000000e+00	-4.269336e-06	0.000000e+00
6.875974981787170e-05	5.000000e+00	-5.904629e+00	0.000000e+00	6.046786e+00	0.000000e+00	-4.554429e-06	0.000000e+00
6.924413145983010e-05	5.000000e+00	-5.905007e+00	0.000000e+00	6.053690e+00	0.000000e+00	-4.840447e-06	0.000000e+00
6.973394524654235e-05	5.000000e+00	-5.905242e+00	0.000000e+00	6.060663e+00	0.000000e+00	-5.129688e-06	0.000000e+00
7.022927459894994e-05	5.000000e+00	-5.905386e+00	0.000000e+00	6.067703e+00	0.000000e+00	-5.422195e-06	0.000000e+00
7.073696947156170e-05	5.000000e+00	-5.905477e+00	0.000000e+00	6.074908e+00	0.000000e+00	-5.722010e-06	0.000000e+00
7.125979143046133e-05	5.000000e+00	-5.905532e+00	0.000000e+00	6.082317e+00	0.000000e+00	-6.030763e-06	0.000000e+00
7.181182283874398e-05	5.000000e+00	-5.905566e+00	0.000000e+00	6.090127e+00	0.000000e+00	-6.356767e-06	0.000000e+00
7.240121785505828e-05	5.000000e+00	-5.905587e+00	0.000000e+00	6.098450e+00	0.000000e+00	-6.704839e-06	0.000000e+00
7.305801797125035e-05	5.000000e+00	-5.905599e+00	0.000000e+00	6.107708e+00	0.000000e+00	-7.092717e-06	0.000000e+00
7.380081257258610e-05	5.000000e+00	-5.905606e+00	0.000000e+00	6.118153e+00	0.000000e+00	-7.531382e-06	0.000000e+00
7.469651940315123e-05	5.000000e+00	-5.905610e+00	0.000000e+00	6.130716e+00	0.000000e+00	-8.060350e-06	0.000000e+00
7.579100342128571e-05	5.000000e+00	-5.905612e+00	0.000000e+00	6.146015e+00	0.000000e+00	-8.706709e-06	0.000000e+00
7.726377062889304e-05	5.000000e+00	-5.905612e+00	0.000000e+00	6.166511e+00	0.000000e+00	-9.576467e-06	0.000000e+00
7.921689562889304e-05	5.000000e+00	-5.905613e+00	0.000000e+00	6.193545e+00	0.000000e+00	-1.072991e-05	0.000000e+00
8.117002062889304e-05	5.000000e+00	-5.905613e+00	0.000000e+00	6.220411e+00	0.000000e+00	-1.188334e-05	0.000000e+00
8.312314562889304e-05	5.000000e+00	-5.905613e+00	0.000000e+00	6.247139e+00	0.000000e+00	-1.303678e-05	0.000000e+00
8.312414562889304e-05	5.000000e+00	-5.905613e+00	0.000000e+00	6.247153e+00	0.000000e+00	-1.303737e-05	0.000000e+00
8.312614562889305e-05	5.000000e+00	-5.905613e+00	0.000000e+00	6.247180e+00	0.000000e+00	-1.303855e-05	0.000000e+00
8.313014562889306e-05	5.000000e+00	-5.905613e+00	0.000000e+00	6.247235e+00	0.000000e+00	-1.304091e-05	0.000000e+00
8.313814562889308e-05	5.000000e+00	-5.905613e+00	0.000000e+00	6.247344e+00	0.000000e+00	-1.304564e-05	0.000000e+00
8.315414562889311e-05	5.000000e+00	-5.905613e+00	0.000000e+00	6.247561e+00	0.000000e+00	-1.305509e-05	0.000000e+00
8.318614562889318e-05	5.000000e+00	-5.905613e+00	0.000000e+00	6.247997e+00	0.000000e+00	-1.307399e-05	0.000000e+00
8.325014562889332e-05	5.000000e+00	-5.905613e+00	0.000000e+00	6.248868e+00	0.000000e+00	-1.311178e-05	0.000000e+00
8.490299999999978e-05	5.000000e+00	-5.905613e+00	0.000000e+00	6.271292e+00	0.000000e+00	-1.408789e-05	0.000000e+00
8.499999999999999e-05	5.000000e+00	-5.905613e+00	0.000000e+00	6.272604e+00	0.000000e+00	-1.414518e-05	0.000000e+00
8.500009999999999e-05	5.000000e+00	-5.905613e+00	0.000000e+00	6.272605e+00	0.000000e+00	-1.414523e-05	5.000000e-01
8.500021857257030e-05	5.000000e+00	-5.905613e+00	0.000000e+00	6.272606e+00	0.000000e+00	-1.422067e-05	1.092863e+00
8.500026635504167e-05	5.000000e+00	-5.905613e+00	0.000000e+00	6.272607e+00	0.000000e+00	-1.450884e-05	1.331775e+00
8.500031247289513e-05	5.000000e+00	-5.905613e+00	0.000000e+00	6.272608e+00	0.000000e+00	-1.532541e-05	1.562364e+00
8.500047564729516e-05	5.000000e+00	-5.905612e+00	0.000000e+00	6.272610e+00	0.000000e+00	-2.553193e-05	2.378237e+00
8.500072619919922e-05	5.000000e+00	-5.905612e+00	0.000000e+00	6.272614e+00	0.000000e+00	-5.778795e-05	3.630996e+00
8.500099999999999e-05	5.000000e+00	-5.905611e+00	0.000000e+00	6.272617e+00	0.000000e+00	-1.189981e-04	5.000000e+00
8.500124022394563e-05	5.000000e+00	-5.905610e+00	0.000000e+00	6.272620e+00	0.000000e+00	-1.979498e-04	5.000000e+00
8.500149646282098e-05	5.000000e+00	-5.905609e+00	0.000000e+00	6.272624e+00	0.000000e+00	-3.095010e-04	5.000000e+00
8.500200894057167e-05	5.000000e+00	-5.905607e+00	0.000000e+00	6.272631e+00	0.000000e+00	-6.146036e-04	5.000000e+00
8.500303389607304e-05	5.000000e+00	-5.905603e+00	0.000000e+00	6.272645e+00	0.000000e+00	-1.533845e-03	5.000000e+00
8.500508380707578e-05	5.000000e+00	-5.905598e+00	0.000000e+00	6.272672e+00	0.000000e+00	-4.417396e-03	5.000000e+00
8.500870999263833e-05	5.000000e+00	-5.905589e+00	0.000000e+00	6.272721e+00	0.000000e+00	-1.208391e-02	5.000000e+00
8.501366328319526e-05	5.000000e+00	-5.905581e+00	0.000000e+00	6.272788e+00	0.000000e+00	-2.678748e-02	5.000000e+00
8.502084801901858e-05	5.000000e+00	-5.905571e+00	0.000000e+00	6.272885e+00	0.000000e+00	-5.441007e-02	5.000000e+00
8.503048477288006e-05	5.000000e+00	-5.905564e+00	0.000000e+00	6.273015e+00	0.000000e+00	-9.874590e-02	5.000000e+00
8.504433514695361e-05	5.000000e+00	-5.905559e+00	0.000000e+00	6.273203e+00	0.000000e+00	-1.700206e-01	5.000000e+00
8.506396811333430e-05	5.000000e+00	-5.905556e+00	0.000000e+00	6.273468e+00	0.000000e+00	-2.764679e-01	5.000000e+00
8.509463184878265e-05	5.000000e+00	-5.905555e+00	0.000000e+00	6.273883e+00	0.000000e+00	-4.433143e-01	5.000000e+00
8.514643922419776e-05	5.000000e+00	-5.905555e+00	0.000000e+00	6.274583e+00	0.000000e+00	-7.140079e-01	5.000000e+00
8.525005397502795e-05	5.000000e+00	-5.905556e+00	0.000000e+00	6.275982e+00	0.000000e+00	-1.207567e+00	5.000000e+00
8.545728347668834e-05	5.000000e+00	-5.905560e+00	0.000000e+00	6.278780e+00	0.000000e+00	-2.033862e+00	5.000000e+00
8.587174248000912e-05	5.000000e+00	-5.905567e+00	0.000000e+00	6.284368e+00	0.000000e+00	-3.274892e+00	5.000000e+00
8.640721339317764e-05	5.000000e+00	-5.905578e+00	0.000000e+00	6.291576e+00	0.000000e+00	-4.343049e+00	5.000000e+00
8.701345864019046e-05	5.000000e+00	-5.905588e+00	0.000000e+00	6.299718e+00	0.000000e+00	-5.045643e+00	5.000000e+00
8.774606278210571e-05	5.000000e+00	-5.905598e+00	0.000000e+00	6.309531e+00	0.000000e+00	-5.480587e+00	5.000000e+00
8.872350961303027e-05	5.000000e+00	-5.905607e+00	0.000000e+00	6.322594e+00	0.000000e+00	-5.780524e+00	5.000000e+00
8.876446199568806e-05	5.000000e+00	-5.905607e+00	0.000000e+00	6.323140e+00	0.000000e+00	-5.787703e+00	5.000000e+00
8.884636676100366e-05	5.000000e+00	-5.905607e+00	0.000000e+00	6.324232e+00	0.000000e+00	-5.796713e+00	5.000000e+00
8.901017629163484e-05	5.000000e+00	-5.905608e+00	0.000000e+00	6.326413e+00	0.000000e+00	-5.812333e+00	5.000000e+00
8.934576187747524e-05	5.000000e+00	-5.905609e+00	0.000000e+00	6.330879e+00	0.000000e+00	-5.839928e+00	5.000000e+00
8.945729322156760e-05	5.000000e+00	-5.905610e+00	0.000000e+00	6.332362e+00	0.000000e+00	-5.846741e+00	5.000000e+00
8.958475761481600e-05	5.000000e+00	-5.905610e+00	0.000000e+00	6.334055e+00	0.000000e+00	-5.853627e+00	5.000000e+00
8.976107121350322e-05	5.000000e+00	-5.905611e+00	0.000000e+00	6.336397e+00	0.000000e+00	-5.862254e+00	5.000000e+00
8.987607121350347e-05	5.000000e+00	-5.905611e+00	0.000000e+00	6.337923e+00	0.000000e+00	-5.866960e+00	5.000000e+00
8.993699999999985e-05	5.000000e+00	-5.905611e+00	0.000000e+00	6.338731e+00	0.000000e+00	-5.869241e+00	5.000000e+00
8.997127883211989e-05	5.000000e+00	-5.905611e+00	0.000000e+00	6.339186e+00	0.000000e+00	-5.870464e+00	5.000000e+00
8.998710930658478e-05	5.000000e+00	-5.905611e+00	0.000000e+00	6.339396e+00	0.000000e+00	-5.871016e+00	5.000000e+00
8.999899999999999e-05	5.000000e+00	-5.905611e+00	0.000000e+00	6.339554e+00	0.000000e+00	-5.871424e+00	5.000000e+00
